<Qucs Dataset 0.0.20>
<indep frequency 41>
  +9.00000000000000000000e+07
  +9.02500000000000000000e+07
  +9.05000000000000000000e+07
  +9.07500000000000000000e+07
  +9.10000000000000000000e+07
  +9.12500000000000000000e+07
  +9.15000000000000000000e+07
  +9.17500000000000000000e+07
  +9.20000000000000000000e+07
  +9.22500000000000000000e+07
  +9.25000000000000000000e+07
  +9.27500000000000000000e+07
  +9.30000000000000000000e+07
  +9.32500000000000000000e+07
  +9.35000000000000000000e+07
  +9.37500000000000000000e+07
  +9.40000000000000000000e+07
  +9.42500000000000000000e+07
  +9.45000000000000000000e+07
  +9.47500000000000000000e+07
  +9.50000000000000000000e+07
  +9.52500000000000000000e+07
  +9.55000000000000000000e+07
  +9.57500000000000000000e+07
  +9.60000000000000000000e+07
  +9.62500000000000000000e+07
  +9.65000000000000000000e+07
  +9.67500000000000000000e+07
  +9.70000000000000000000e+07
  +9.72500000000000000000e+07
  +9.75000000000000000000e+07
  +9.77500000000000000000e+07
  +9.80000000000000000000e+07
  +9.82500000000000000000e+07
  +9.85000000000000000000e+07
  +9.87500000000000000000e+07
  +9.90000000000000000000e+07
  +9.92500000000000000000e+07
  +9.95000000000000000000e+07
  +9.97500000000000000000e+07
  +1.00000000000000000000e+08
</indep>
<dep S[1,1] frequency>
  -2.77845861006591754450e-01-j5.75472234983609887138e-01
  -2.82617181737973233169e-01-j5.61586875791579731576e-01
  -2.87002027628340206089e-01-j5.47364458236462958496e-01
  -2.90976337863760758928e-01-j5.32812995646935183558e-01
  -2.94515695785290687603e-01-j5.17942160744602198008e-01
  -2.97595435712125433447e-01-j5.02763381156693389684e-01
  -3.00190763577258046269e-01-j4.87289930076463206898e-01
  -3.02276891639349121199e-01-j4.71537010331951111919e-01
  -3.03829187337045503181e-01-j4.55521829981570980372e-01
  -3.04823336120363885815e-01-j4.39263667430719206841e-01
  -3.05235517828934932449e-01-j4.22783923964074825896e-01
  -3.05042595890396617264e-01-j4.06106161520561004252e-01
  -3.04222318286287984890e-01-j3.89256123509667817384e-01
  -3.02753528883033695696e-01-j3.72261736486297012405e-01
  -3.00616387357202252684e-01-j3.55153090574018115433e-01
  -2.97792595566373607952e-01-j3.37962396659723440795e-01
  -2.94265627838042331810e-01-j3.20723918582119460474e-01
  -2.90020962282200089888e-01-j3.03473878805728347618e-01
  -2.85046309890017335320e-01-j2.86250336413437111993e-01
  -2.79331837876898414486e-01-j2.69093036663243356799e-01
  -2.72870383476642386356e-01-j2.52043231835773928751e-01
  -2.65657654210503468839e-01-j2.35143473641536121521e-01
  -2.57692410554381912124e-01-j2.18437378051021507952e-01
  -2.48976626921971533335e-01-j2.01969364043866728142e-01
  -2.39515626983240026426e-01-j1.85784368427997614859e-01
  -2.29318189552178808288e-01-j1.69927539538285543586e-01
  -2.18396621611712138389e-01-j1.54443913263269838598e-01
  -2.06766795494133903688e-01-j1.39378075447112004248e-01
  -1.94448147799713588757e-01-j1.24773815246528474443e-01
  -1.81463638301899987670e-01-j1.10673774467654917331e-01
  -1.67839667840826711753e-01-j9.71190982435756189339e-02
  -1.53605955027022067494e-01-j8.41490926214504275649e-02
  -1.38795372440142672499e-01-j7.18008946951527171620e-02
  -1.23443743886247236929e-01-j6.01091608354478168508e-02
  -1.07589605142052957554e-01-j4.91057783321058871628e-02
  -9.12739314358869679999e-02-j3.88196053743184998908e-02
  -7.45398356642053006027e-02-j2.92762437655673668502e-02
  -5.74322419919381377262e-02-j2.04978481140381529890e-02
  -3.99975400126139635226e-02-j1.25029744789902363955e-02
  -2.22832250313780844131e-02-j5.30647061336231296025e-03
  -4.33753026875643987736e-03+j1.08059094816936873684e-03
</dep>
<dep S[2,2] frequency>
  -2.09782266010594298233e-01-j4.52992156866868611598e-01
  -2.11957513185479395901e-01-j4.39234719483015845221e-01
  -2.13714304686729139604e-01-j4.25309300950776791872e-01
  -2.15039687444064486765e-01-j4.11230971421693125567e-01
  -2.15921301821002831201e-01-j3.97015808482009735503e-01
  -2.16347465991637399885e-01-j3.82680878525140932833e-01
  -2.16307260959971159320e-01-j3.68244210453214870782e-01
  -2.15790615472729874202e-01-j3.53724761417007815822e-01
  -2.14788390018920194446e-01-j3.39142374380656697053e-01
  -2.13292459059756328577e-01-j3.24517727384759313569e-01
  -2.11295790592905097238e-01-j3.09872274478181330970e-01
  -2.08792522127031671131e-01-j2.95228178393720286365e-01
  -2.05778032127510168703e-01-j2.80608235154583329773e-01
  -2.02249005994139946507e-01-j2.66035790915256642464e-01
  -1.98203495647010896619e-01-j2.51534651460115776800e-01
  -1.93640971828975411162e-01-j2.37128984903450579225e-01
  -1.88562368282296138888e-01-j2.22843218253152342001e-01
  -1.82970117023732420369e-01-j2.08701928614203557899e-01
  -1.76868174025330421317e-01-j1.94729729915107507843e-01
  -1.70262034707922255139e-01-j1.80951156137055146900e-01
  -1.63158738768043404255e-01-j1.67390542110157802824e-01
  -1.55566863986204201309e-01-j1.54071903010310262694e-01
  -1.47496508802146791828e-01-j1.41018813742600612748e-01
  -1.38959263588667059075e-01-j1.28254289430531631666e-01
  -1.29968170706874081022e-01-j1.15800668243405180391e-01
  -1.20537673579039078531e-01-j1.03679497786259511294e-01
  -1.10683555167580910394e-01-j9.19114262471968368473e-02
  -1.00422866396392806987e-01-j8.05160994463124390919e-02
  -8.97738451908505485921e-02-j6.95120648591944778616e-02
  -7.87558269419362799724e-02-j5.89166835978537362095e-02
  -6.73891473154702436155e-02-j4.87460512244382027092e-02
  -5.56950384266932663202e-02-j3.90149281507675693703e-02
  -4.36955194814319936025e-02-j2.97366802422726062005e-02
  -3.14132830463313694747e-02-j2.09232301012183263822e-02
  -1.88715781509901647794e-02-j1.25850193544605470919e-02
  -6.09409144382766498893e-03-j4.73098211879707797323e-03
  +6.89517237859940679279e-03+j2.63147033478106084914e-03
  +2.00720096717836582467e-02+j9.49645384430797268038e-03
  +3.34121353181564550994e-02+j1.58596048149342028211e-02
  +4.68912974816382555066e-02+j2.17180632708017240518e-02
  +6.04853886226527498460e-02+j2.70704460192455753642e-02
</dep>
