<Qucs Dataset 0.0.20>
<indep frequency 41>
  +1.08000000000000000000e+08
  +1.08300000000000000000e+08
  +1.08600000000000000000e+08
  +1.08900000000000000000e+08
  +1.09200000000000000000e+08
  +1.09500000000000000000e+08
  +1.09800000000000000000e+08
  +1.10100000000000000000e+08
  +1.10400000000000000000e+08
  +1.10700000000000000000e+08
  +1.11000000000000000000e+08
  +1.11300000000000000000e+08
  +1.11600000000000000000e+08
  +1.11900000000000000000e+08
  +1.12200000000000000000e+08
  +1.12500000000000000000e+08
  +1.12800000000000000000e+08
  +1.13100000000000000000e+08
  +1.13400000000000000000e+08
  +1.13700000000000000000e+08
  +1.14000000000000000000e+08
  +1.14300000000000000000e+08
  +1.14600000000000000000e+08
  +1.14900000000000000000e+08
  +1.15200000000000000000e+08
  +1.15500000000000000000e+08
  +1.15800000000000000000e+08
  +1.16100000000000000000e+08
  +1.16400000000000000000e+08
  +1.16700000000000000000e+08
  +1.17000000000000000000e+08
  +1.17300000000000000000e+08
  +1.17600000000000000000e+08
  +1.17900000000000000000e+08
  +1.18200000000000000000e+08
  +1.18500000000000000000e+08
  +1.18800000000000000000e+08
  +1.19100000000000000000e+08
  +1.19400000000000000000e+08
  +1.19700000000000000000e+08
  +1.20000000000000000000e+08
</indep>
<dep S[2,2] frequency>
  -8.32811606195017262166e-01+j3.22070882702222671679e-01
  -8.32328023398061223048e-01+j3.23530378899441084517e-01
  -8.31842495972755502365e-01+j3.24986678841795439965e-01
  -8.31355035254003560397e-01+j3.26439800183961792435e-01
  -8.30865652445606728271e-01+j3.27889760349520109628e-01
  -8.30374358622721020495e-01+j3.29336576534639935421e-01
  -8.29881164734257437132e-01+j3.30780265711697329944e-01
  -8.29386081605231417768e-01+j3.32220844632824419129e-01
  -8.28889119939059337838e-01+j3.33658329833392275354e-01
  -8.28390290319806377184e-01+j3.35092737635433346455e-01
  -8.27889603214389424579e-01+j3.36524084150997604414e-01
  -8.27387068974718253855e-01+j3.37952385285447132190e-01
  -8.26882697839813163299e-01+j3.39377656740694921833e-01
  -8.26376499937854780420e-01+j3.40799914018378613534e-01
  -8.25868485288203668659e-01+j3.42219172422982664816e-01
  -8.25358663803373415746e-01+j3.43635447064899457459e-01
  -8.24847045290957314734e-01+j3.45048752863437058203e-01
  -8.24333639455522737549e-01+j3.46459104549775354087e-01
  -8.23818455900456658725e-01+j3.47866516669864178635e-01
  -8.23301504129778205510e-01+j3.49271003587274420088e-01
  -8.22782793549909463593e-01+j3.50672579485994950765e-01
  -8.22262333471410977737e-01+j3.52071258373182205403e-01
  -8.21740133110681503226e-01+j3.53467054081861076220e-01
  -8.21216201591619676670e-01+j3.54859980273575403853e-01
  -8.20690547947253601357e-01+j3.56250050440995447154e-01
  -8.20163181121334350365e-01+j3.57637277910477557885e-01
  -8.19634109969899382619e-01+j3.59021675844578780357e-01
  -8.19103343262803540448e-01+j3.60403257244530261794e-01
  -8.18570889685209968079e-01+j3.61782034952662590044e-01
  -8.18036757839065931108e-01+j3.63158021654795437616e-01
  -8.17500956244537446693e-01+j3.64531229882581742086e-01
  -8.16963493341413382609e-01+j3.65901672015810586203e-01
  -8.16424377490489572295e-01+j3.67269360284674994954e-01
  -8.15883616974917180720e-01+j3.68634306771997100061e-01
  -8.15341220001528643735e-01+j3.69996523415415945468e-01
  -8.14797194702133520394e-01+j3.71356022009539099571e-01
  -8.14251549134787699913e-01+j3.72712814208056797405e-01
  -8.13704291285043734838e-01+j3.74066911525821055307e-01
  -8.13155429067165425039e-01+j3.75418325340887815145e-01
  -8.12604970325330189240e-01+j3.76767066896527724751e-01
  -8.12052922834796353513e-01+j3.78113147303200891614e-01
</dep>
<dep S[1,1] frequency>
  +4.67757795573322088245e-01-j1.38847846999067159324e-01
  +4.77269562139522041111e-01-j1.51261782209942630129e-01
  +4.86160388915803154397e-01-j1.63776534103296067535e-01
  +4.94446671037643836755e-01-j1.76361919768944497289e-01
  +5.02145727409332942592e-01-j1.88990048964853746272e-01
  +5.09275592070165483705e-01-j2.01635254830591886810e-01
  +5.15854825531843252939e-01-j2.14274012820069359453e-01
  +5.21902345533819977952e-01-j2.26884850619292421925e-01
  +5.27437276435033797206e-01-j2.39448251501690329013e-01
  +5.32478816290873235850e-01-j2.51946553267831330203e-01
  +5.37046120545421779013e-01-j2.64363844624379895620e-01
  +5.41158201193938315221e-01-j2.76685860583074649810e-01
  +5.44833840231737087656e-01-j2.88899878207467430968e-01
  +5.48091516196175021491e-01-j3.00994613804798472056e-01
  +5.50949342623404447750e-01-j3.12960122453094513606e-01
  +5.53425017274438602044e-01-j3.24787700569568182907e-01
  +5.55535781032137632174e-01-j3.36469792064605643933e-01
  +5.57298385427872911002e-01-j3.47999898485102265866e-01
  +5.58729067820422975466e-01-j3.59372493430090089728e-01
  +5.59843533317412545003e-01-j3.70582941419018097040e-01
  +5.60656942599473517852e-01-j3.81627421306753478181e-01
  +5.61183904876895622849e-01-j3.92502854267979151004e-01
  +5.61438475277174386946e-01-j4.03206836315212591160e-01
  +5.61434156027994957228e-01-j4.13737575267787538458e-01
  +5.61183900863442497453e-01-j4.24093832052139907418e-01
  +5.60700122140753598465e-01-j4.34274866185425489906e-01
  +5.59994700210779905447e-01-j4.44280385273444988758e-01
  +5.59078994636964976550e-01-j4.54110498339051260608e-01
  +5.57963856905357102889e-01-j4.63765672787598171034e-01
  +5.56659644311690238183e-01-j4.73246694810659618291e-01
  +5.55176234751244668253e-01-j4.82554633027465762485e-01
  +5.53523042173116985865e-01-j4.91690805164545940986e-01
  +5.51709032492836315420e-01-j5.00656747577406413541e-01
  +5.49742739786215461884e-01-j5.09454187423107884847e-01
  +5.47632282613306764496e-01-j5.18085017299073191666e-01
  +5.45385380344114323314e-01-j5.26551272170815432005e-01
  +5.43009369378374406878e-01-j5.34855108419405089748e-01
  +5.40511219169419909747e-01-j5.42998784847981807999e-01
  +5.37897547978037571248e-01-j5.50984645495441349716e-01
  +5.35174638296102345159e-01-j5.58815104114231075982e-01
  +5.32348451891613061449e-01-j5.66492630178013545361e-01
</dep>
